# HZ S RI R 50
950000000.0 -0.03484238260223555 0.016165904694740517 0.08729125559691744 -0.04376938651973121 0.08705905128179611 -0.04391949100244212 -0.0347031083696133 0.016204452150161548
954050000.0 -0.03468827888355734 0.01667943068862214 0.08663733503154931 -0.0434225779823248 0.08754823748986924 -0.04347836947744768 -0.034681964931886175 0.01703557772614177
958100000.0 -0.034088070692595666 0.016611135917106952 0.08720524633970596 -0.04462517911259519 0.08721947290726621 -0.044421368121419384 -0.03414300843041861 0.016726487237921885
962150000.0 -0.0347683125958109 0.01695012800069595 0.08784548579118359 -0.04404728738652315 0.08792733936998291 -0.04397316330804339 -0.03437435196555012 0.01718338811027908
966200000.0 -0.03429953765614718 0.017243370220886095 0.08736629991009404 -0.044131893682681486 0.08789712477869475 -0.04526999398761352 -0.034410174529156255 0.01702151546934074
970250000.0 -0.03419797691198031 0.017267150173889776 0.08721419366826776 -0.04418888234379642 0.08675675141706796 -0.04391905831819572 -0.03395980310337743 0.016939134369259742
974300000.0 -0.03414460767474586 0.016971819782736503 0.08647216140769051 -0.04480376548329751 0.08668804042417602 -0.044494238362021925 -0.03423593383979863 0.016786832164435637
978350000.0 -0.033900409384811724 0.017124328995384592 0.08689681892062927 -0.044831587764380704 0.08763490215526902 -0.04457517609877079 -0.0340612125468355 0.017160809999510394
982400000.0 -0.03389947738681566 0.01732484726919038 0.08703719714073924 -0.04471184198715252 0.08733015812747687 -0.04424763814521499 -0.03415603857588199 0.01759151581879349
986450000.0 -0.033931246432654515 0.01765596260549025 0.08737874526559908 -0.045118848343120924 0.0877215697663804 -0.044889395158790625 -0.03412723196587443 0.017712553128992958
990500000.0 -0.03398623626956576 0.017571663103680683 0.0872345238826853 -0.0450058156571038 0.08743321480244436 -0.04483815952188075 -0.034086315601614535 0.01766112082250529
994550000.0 -0.03425591285950114 0.017484394017587918 0.0876970241345349 -0.04416455658043907 0.08687819134309395 -0.04464932551509325 -0.03441373154555191 0.01752710703769123
998600000.0 -0.0338251275001548 0.018007863548968578 0.08700791281394005 -0.04513915714500887 0.08740150792774092 -0.04522725408376061 -0.03438907221880228 0.01777233276556573
1002650000.0 -0.03412097516032668 0.017875946243720065 0.08709700070607285 -0.04555256927996866 0.08799174518317546 -0.04508580352637756 -0.034483414097569436 0.017676443425518308
1006700000.0 -0.033845315636298785 0.018033776905554456 0.08680269669667995 -0.04536006444201979 0.08631613535083502 -0.04587578095353071 -0.03398192581325246 0.01794696681956609
1010750000.0 -0.03413607646118185 0.018295933532792102 0.08687010909883167 -0.04611189266509329 0.08805529663202234 -0.04587775969951622 -0.03413680428551077 0.018442304443120273
1014800000.0 -0.0341767277819646 0.01792036210899459 0.0864301142402365 -0.04591701484656496 0.08704993470616436 -0.04585739817796604 -0.03406942787522401 0.017909611504857093
1018850000.0 -0.0339284122388913 0.018154152223330375 0.0871218599156262 -0.04572060394222726 0.08584137411531702 -0.046317492267977795 -0.03394994993500517 0.018028713193421274
1022900000.0 -0.03398550990239722 0.018238147292805283 0.08652694934627259 -0.045755671089249446 0.08665652628614631 -0.04486092789965934 -0.03414855328103513 0.01818769938206328
1026950000.0 -0.03390447539052825 0.018492997282567914 0.086313689008305 -0.046747542072044894 0.08664234349760744 -0.04649616342498167 -0.033917309699000864 0.018615375440266094
1031000000.0 -0.034267874679982366 0.01874556920760272 0.08657625681860119 -0.04685067080928097 0.08558951714246092 -0.04678125859059789 -0.03421299234554594 0.018700033549799176
1035050000.0 -0.03396779818810194 0.019304237520616524 0.0866215411638595 -0.047561549663544346 0.08622582327987352 -0.04765813466458817 -0.034325501834163705 0.019034768814798465
1039099999.9999999 -0.03441185349017148 0.019311031546009483 0.08598087278366214 -0.04687829364812363 0.08618307627722155 -0.04671571751985208 -0.034340111804915446 0.01953962182914262
1043150000.0000001 -0.03409259954813612 0.019225874649815775 0.08612291886241506 -0.047326902989926055 0.08652575025210962 -0.04794226677275023 -0.03407212723295918 0.01936352875436298
1047200000.0 -0.034686088966751315 0.019250561866880983 0.0856441269232395 -0.04718063080922132 0.0862306251100333 -0.04715122154444036 -0.03481051302309313 0.019232292714834166
1051250000.0 -0.034713970283335845 0.019792469961267496 0.08545034538751896 -0.04736589989806713 0.08583695209063412 -0.046974888566021986 -0.03447127343301737 0.0198138564622375
1055300000.0 -0.0348747053687831 0.01946685710227954 0.0855584783478925 -0.047562578596972764 0.0856090914857581 -0.047161330080725004 -0.03485221845764325 0.019342762692560526
1059349999.9999999 -0.03474864096464819 0.019261486212386977 0.08469974185447322 -0.04827270273959803 0.08500574204913097 -0.048624157768300785 -0.03493374206214547 0.019070229823877016
1063400000.0000001 -0.035466084978341375 0.01951376991534614 0.08515640485798072 -0.047728933695020646 0.08621399840878656 -0.04792698695275711 -0.035473228733077906 0.019124331184403192
1067450000.0 -0.03499483086281311 0.018427270901658317 0.0841214319855957 -0.04767117347719476 0.08460072506295675 -0.047533976467596314 -0.035261653708175286 0.01875684882288943
1071500000.0 -0.03519272589425136 0.0185236320448256 0.08428251954003899 -0.048778287177625924 0.08490455320177379 -0.04892092543694533 -0.03505952319748022 0.01862578409531653
1075550000.0 -0.034985107076597126 0.01835980345317002 0.08487829287205856 -0.04886633809817402 0.08486148279246608 -0.04893557334152717 -0.035024215751046125 0.018819189967269376
1079600000.0 -0.03460261144300782 0.018483835676726405 0.08481651676930868 -0.04869289971979056 0.08422811111895773 -0.04847244265902544 -0.035098828929810935 0.018764653147763412
1083650000.0 -0.03502599271160023 0.018560965345771424 0.08442136313462899 -0.04891766906232456 0.0842401012213367 -0.04995847221662156 -0.03471427701065228 0.01846568091427172
1087700000.0 -0.034572766165954456 0.018834031422779215 0.08521595042036977 -0.049001344817801516 0.0847802695186878 -0.048514825572588176 -0.034452110565358615 0.018846351837751123
1091750000.0 -0.03442348066307886 0.01875270591244463 0.08465875807588871 -0.04844529162930232 0.08474815623513554 -0.04804587822847094 -0.03453526638840439 0.01873551375014696
1095800000.0 -0.034333100156046716 0.018625837797931796 0.08414502274968558 -0.048836044541454196 0.08427572934716109 -0.04912844331956846 -0.034249284202624415 0.018758705488595474
1099850000.0 -0.034094671383236234 0.018666287345616754 0.08428399540322452 -0.049034765410565874 0.08386946468480153 -0.04885239496160686 -0.034460828231267095 0.018913683343418457
1103900000.0 -0.03418462117560746 0.01873104575511496 0.08480221188751978 -0.0491778990907928 0.08469347563097417 -0.04846515847024113 -0.03417915810720062 0.01890684402757325
1107950000.0 -0.03483961103111558 0.0189084928854885 0.08497550731508728 -0.04953637811289344 0.08438724904708753 -0.049886602392474354 -0.03433766151250029 0.018659351592511357
1112000000.0 -0.03393553830698113 0.019035948618742814 0.08430116596124942 -0.04983571327445694 0.08482859545352144 -0.04939124409632543 -0.034215311895215254 0.018903452909803053
1116050000.0 -0.03401887491987744 0.019153008880740736 0.08462999081829067 -0.0495528965257939 0.08399313882180415 -0.04825919115423647 -0.03377719443264136 0.019133570922845056
1120100000.0 -0.03420053220369308 0.01917674886377126 0.08374776895462291 -0.05004262977825103 0.08456904949635911 -0.04977522242323345 -0.034024407680458967 0.01900001531562342
1124150000.0 -0.03413075300001301 0.019137622622784223 0.08415474798017557 -0.0497689792179138 0.08297174181306169 -0.05011102633659215 -0.03370683951461571 0.019257242012706313
1128200000.0 -0.0338115693032312 0.018888903654071452 0.08420101541767097 -0.050473140407875684 0.08440711641667585 -0.050576661596251404 -0.03388071962966008 0.019051869655662843
1132250000.0 -0.03388955140445901 0.019259769095306682 0.08245945128730313 -0.05098765922649206 0.08379229019047323 -0.051187187895366214 -0.033856822945538455 0.01939783338505774
1136300000.0 -0.0344232652016407 0.019002663309586703 0.08458178105076251 -0.05042086090380519 0.08458258815077795 -0.05034134167576266 -0.03427723684288163 0.019039304987761463
1140350000.0 -0.033853387871461825 0.019262674518985192 0.08454241086824933 -0.050798205328378636 0.08383276292800151 -0.05019274808035015 -0.03364184853312066 0.019290267682812685
1144400000.0 -0.033893793708519915 0.0194740557677207 0.08265193682562723 -0.050827927746196044 0.0833114238348031 -0.051454184072996456 -0.03399673075342079 0.01963593384790786
1148450000.0 -0.03369921696898701 0.019511185911603064 0.08476493800199716 -0.05141638732464173 0.08334791004396187 -0.052547947546061576 -0.03384892008181367 0.01947185428496709
1152500000.0 -0.03387780868276925 0.019701527322867243 0.08311748699679875 -0.05161539455760257 0.08327831998842855 -0.0513935892880124 -0.03384952127231835 0.019550908153711622
1156550000.0 -0.03433214118617933 0.01943210183104876 0.08409444028835965 -0.05222207591227594 0.0834884537379848 -0.05194677076046567 -0.03408688465085581 0.019719753923394947
1160600000.0 -0.033713907102327405 0.01972450424967983 0.08336571026303027 -0.05134711727390826 0.08340049397360791 -0.05169034730932062 -0.03351735607015118 0.019782650026391818
1164650000.0 -0.03317625384027704 0.019847714758266327 0.08251891428791719 -0.052025294662725124 0.08311951325403119 -0.0524039513435097 -0.03321946282492203 0.019638110642921414
1168700000.0 -0.03375515934310493 0.01989124475043218 0.0835479559685706 -0.052755617269384554 0.0829206657720915 -0.0528669914777935 -0.0334413188379704 0.01987179393958195
1172750000.0 -0.033039941302529546 0.020112301676471597 0.0829712580025809 -0.05289924711627904 0.08260185578322803 -0.05304980981272975 -0.03348430253827627 0.019897336091175243
1176800000.0 -0.03339303631317483 0.020359204939952528 0.08277593966647259 -0.05322285141114189 0.0826557072753156 -0.05300292590807926 -0.033262029842825766 0.020247492949374456
1180850000.0 -0.03294836175632289 0.020357267930016527 0.08251527339775201 -0.054119978345286125 0.0826106517447697 -0.05395599242256951 -0.032991572364466176 0.02024895683535801
1184900000.0 -0.032929965744556526 0.020632909539430772 0.08285528550753612 -0.05229801204123034 0.08245688250151921 -0.05279422911768533 -0.032948960282753986 0.02056481500732502
1188950000.0 -0.032984541937442956 0.021200096536975185 0.08199825080851086 -0.054232305541480966 0.08247640683593768 -0.05370417782103075 -0.0330679162866791 0.020695241299805697
1193000000.0 -0.0331041828168834 0.02110593944903572 0.0821514810578475 -0.05379938810062919 0.08222787104940002 -0.05329744199005465 -0.0331551220379738 0.020838509607144746
1197050000.0 -0.033003593921552235 0.021391860327266542 0.08212501131751355 -0.052885394166048066 0.08246417144444908 -0.0539424881515537 -0.03316067877835322 0.0216089283158345
1201100000.0 -0.03332756033051262 0.021387700260103733 0.08183486479251767 -0.05338819161940544 0.08171840285240219 -0.053475024406282455 -0.033350010074934815 0.021426768958518843
1205150000.0 -0.0333425286899601 0.021438409002516663 0.08084017985026368 -0.0537711207041198 0.0810786895204021 -0.0538277670506054 -0.03360752860044993 0.021691796176664117
1209200000.0 -0.03319290352109641 0.02130128530955786 0.08208551545971178 -0.054063779480474895 0.0821315942890159 -0.05401195441330086 -0.033127658469886974 0.0214394459887033
1213250000.0 -0.033464041781981146 0.021508284627413235 0.08158483034157746 -0.054636906557161725 0.08150528377256658 -0.054934623118334004 -0.033376592801985225 0.021625354400112574
1217300000.0 -0.03399717948990593 0.021227298149578973 0.08133254570146657 -0.05407814632288029 0.08057003697572443 -0.05397767632763008 -0.03373710599277368 0.021302996954239893
1221350000.0 -0.033735614361589596 0.02121157287063149 0.08079183922769083 -0.05459742497780418 0.08053010064271475 -0.05450248150748947 -0.03347321263169869 0.021308365402186228
1225400000.0 -0.03398036685746421 0.021423435024107308 0.08054689732860476 -0.05437048584236859 0.08119530674723764 -0.05421198264426404 -0.03370505885851061 0.021688139785245183
1229450000.0 -0.033696145024497505 0.021367728248179126 0.08162268336429941 -0.05499303556279939 0.0810939332643619 -0.05473974413271602 -0.033607610488901 0.021245849411739497
1233500000.0 -0.033254969608700946 0.02162905213652175 0.08061560598184675 -0.0555299574300182 0.08150302223936587 -0.05441743623003049 -0.03337691689640497 0.02155120225162569
1237550000.0 -0.03335916479553627 0.021962917022660112 0.08124127763001318 -0.05512864236531785 0.08100850744193144 -0.055115352870416585 -0.033134247910938414 0.02203101712078844
1241600000.0 -0.033541988116149564 0.021682680489646146 0.08089705549738133 -0.05522561825687065 0.0804484067593787 -0.054960519920007604 -0.03341654919217257 0.021875507767526465
1245650000.0 -0.03340408076983575 0.021967425609804372 0.08027534648113237 -0.05521298440887024 0.08112508521332829 -0.054657780316531575 -0.03343181303296551 0.02185217328617082
1249700000.0 -0.03364656116091754 0.02252440947160735 0.08087874504193257 -0.055482564832946106 0.08163155101143968 -0.05524793914225872 -0.033881466702619864 0.022315266390506336
1253750000.0 -0.033505655511686196 0.02206774679780908 0.08050802309988585 -0.05471319600012639 0.07991559878514036 -0.05574989390853109 -0.03367700249009452 0.021970516682184967
1257800000.0 -0.0332175207129262 0.022086385346776854 0.08071656619529445 -0.05591164495559624 0.08021297700638325 -0.0561448699328214 -0.03321369707115092 0.02234393042563955
1261850000.0 -0.034145436297903835 0.021946236124351513 0.0809504600616934 -0.05544869174110585 0.08023678098693768 -0.05526901371341989 -0.03383508036839434 0.021947579284839036
1265900000.0 -0.03398221785174457 0.02239863544675372 0.08064773368100567 -0.05590563435037279 0.08045537262081831 -0.05646111154100033 -0.033985394198394754 0.02202823145828363
1269950000.0 -0.033912059399890136 0.02237787137460404 0.07943287864969469 -0.0559507228677421 0.08060207654141716 -0.05485941356970133 -0.03443751928358569 0.02241529311859793
1274000000.0 -0.03415566169184662 0.021726048292133607 0.08074538206370442 -0.05541180537923666 0.08085353410580062 -0.05615282381681384 -0.03383083314698035 0.021677341363303192
1278050000.0 -0.0337945122648586 0.022966726819038052 0.0802396837034648 -0.05510597752665244 0.0816895106636722 -0.05541198378987877 -0.03432354211430234 0.022752732950740533
1282100000.0 -0.034325110645109264 0.02249596362019211 0.08100741844081183 -0.056071281040789664 0.0811377533545013 -0.056392207622898684 -0.03436538864593422 0.022470951542244384
1286150000.0 -0.033976170798175886 0.02262503520203185 0.08090452122574404 -0.05658684781142285 0.0809318211031731 -0.057069967872112805 -0.033908684969424785 0.022545941622480657
1290200000.0 -0.03443643307577732 0.02161868814284322 0.07986781944513525 -0.05623623224469503 0.08062879724597029 -0.05696170164828483 -0.0343329068949996 0.021595488050500013
1294250000.0 -0.034016134771535006 0.022438027435689775 0.07939174886728195 -0.05644163633165177 0.07931441027165789 -0.05682542761175784 -0.03433790955910901 0.02251292000408766
1298300000.0 -0.034284358708855565 0.021765910224994488 0.08053354506840425 -0.0566629421996008 0.08099815798894858 -0.05629518631639233 -0.03424533438907463 0.02164063706503259
1302350000.0 -0.03434985337918197 0.021942314664335223 0.07929083796222426 -0.05630741971754962 0.07889921550607086 -0.05663221867918109 -0.03390811763755154 0.022256530688271388
1306400000.0 -0.03452997305978163 0.021938757040697515 0.07881978600390484 -0.05789888888656367 0.07926782576630509 -0.05793033918667058 -0.034531409477129585 0.02188049724121473
1310450000.0 -0.03332471657533104 0.021484547125174808 0.0794671646129494 -0.05858824667438344 0.07897089798703542 -0.05843539057045176 -0.03381691081002429 0.021643452665110113
1314500000.0 -0.033575787472987145 0.021796040823250446 0.07900542927893257 -0.057865594652190204 0.07868847826448791 -0.057485875555819924 -0.033294729021014574 0.021696281234746415
1318550000.0 -0.03232271212619134 0.02223140078374198 0.07822440892182765 -0.057188738828817434 0.07782739828904539 -0.057526206858772584 -0.03334635636342187 0.022289742422999734
1322600000.0 -0.03333295574469671 0.02254266313730679 0.07822948238849282 -0.057823407762155374 0.07872439139464085 -0.05738577000915295 -0.03302574122116013 0.0216691120444047
1326650000.0 -0.03401773044347033 0.0219229312701425 0.07885195013053241 -0.05758419540648311 0.07913878128669621 -0.058410126660164506 -0.03320849485781414 0.021955226468395442
1330700000.0 -0.03333862831571567 0.021957738089943623 0.07785865451783107 -0.05852170466308226 0.07852130538742805 -0.059320592548071045 -0.03398517327013302 0.0215094490352272
1334750000.0 -0.03212664700688626 0.02136106158632868 0.07894180340807405 -0.059077505657238 0.07900648529562611 -0.05934131260118884 -0.03214004773477521 0.021467180336652753
1338800000.0 -0.03277075464362854 0.02219581131851455 0.07807477051388369 -0.05821634056864445 0.07766237143225069 -0.058183482737965524 -0.03340607534330666 0.022380308982615022
1342850000.0 -0.03306668135949699 0.022472093446528178 0.07886264066370809 -0.05831269422301508 0.07801298799672961 -0.058765658371383235 -0.032936375137388035 0.02205730701625308
1346900000.0 -0.03204242550508029 0.021808726871401278 0.07802297945287365 -0.05905114035559734 0.07803924481049866 -0.05927795770273347 -0.03249687860166618 0.021689116652103903
1350950000.0 -0.03170609485744116 0.022085586903927718 0.07749778605049866 -0.05770197186640276 0.07786043281251094 -0.05803537802279286 -0.032190606568943195 0.02189314387481869
1355000000.0 -0.03167664107286128 0.021917591344422806 0.07703758319863097 -0.05977801330685064 0.07718698658381173 -0.05914208909152995 -0.03198842409366152 0.021870144581233462
1359050000.0 -0.03139045550238083 0.023261646617405426 0.07752263502684685 -0.0589495814954975 0.07765385224962221 -0.05864397096713219 -0.03196022301230866 0.023211939707906706
1363100000.0 -0.032291268623926186 0.022627392042775064 0.07727816156187858 -0.05859356744230709 0.07737103049810741 -0.05898362263934737 -0.0325262004353854 0.022919214324167717
1367150000.0 -0.032346139816232085 0.02277544377150016 0.07736656507526952 -0.05951576856980079 0.07695147995307904 -0.05990509271364893 -0.03221505372442819 0.0226663277469511
1371200000.0 -0.0323245868782603 0.02308244967826859 0.07835307653207048 -0.05897898183217058 0.07780557413010777 -0.0595514318407568 -0.03239801608918434 0.023203255234663777
1375250000.0 -0.03247090395399994 0.023135628290801 0.07721692506012531 -0.0600035880948714 0.077647878964884 -0.05996981734384996 -0.03219900713758683 0.023103264690377247
1379300000.0 -0.0322286501147284 0.022768524585102506 0.07685699608184016 -0.05942326693540171 0.07746545851424384 -0.05941985894612983 -0.03221815571213255 0.022921650082591803
1383350000.0 -0.0323680747489551 0.02360320607557488 0.07697657478148932 -0.06105464302499674 0.07701223610078162 -0.06117056474120106 -0.0327271940017207 0.023464945616253542
1387400000.0 -0.03223965728974268 0.023337619798084422 0.07704642191248079 -0.05922669390134825 0.07675701312884867 -0.05979674686417108 -0.03210074574705123 0.023511406220878665
1391450000.0 -0.032491513565216415 0.0232787982129954 0.0769804722130196 -0.05994924351366345 0.07704831010443505 -0.060980205887245176 -0.03246681761652823 0.02343303979118142
1395500000.0 -0.03219404441667659 0.023519362323350848 0.07667070324310164 -0.060377242105020344 0.07651559949546051 -0.06086325602406007 -0.032331481264652906 0.023602462143458645
