!Agilent Technologies,E5071C,MY46523136,B.13.10
!Date: Thu Jun 11 13:55:00 2020
!Data & Calibration Information:
!Freq	S11:SOLT2(ON)	S21:SOLT2(ON)	S12:SOLT2(ON)	S22:SOLT2(ON)
!PortZ  Port1:50+j0    Port2:50+j0
!Above PortZ is port z conversion or system Z0 setting when saving the data.
!When reading, reference impedance value at option line is always used.
# Hz S dB R 50
300000000	-3.277148e+001	1.216263e+002	-1.308425e-001	-1.454903e+002	-1.336851e-001	-1.454992e+002	-3.327656e+001	1.386578e+002
301062500	-3.272093e+001	1.209062e+002	-1.316168e-001	-1.460021e+002	-1.344552e-001	-1.460100e+002	-3.321796e+001	1.380219e+002
302125000	-3.266335e+001	1.201840e+002	-1.322711e-001	-1.465127e+002	-1.351811e-001	-1.465213e+002	-3.316572e+001	1.374158e+002
303187500	-3.260592e+001	1.194698e+002	-1.329855e-001	-1.470246e+002	-1.357611e-001	-1.470340e+002	-3.311054e+001	1.368078e+002
304250000	-3.255383e+001	1.187226e+002	-1.335322e-001	-1.475379e+002	-1.364183e-001	-1.475462e+002	-3.305229e+001	1.361542e+002
305312500	-3.249925e+001	1.179697e+002	-1.341744e-001	-1.480516e+002	-1.370310e-001	-1.480587e+002	-3.299651e+001	1.355526e+002
306375000	-3.244290e+001	1.172785e+002	-1.348237e-001	-1.485646e+002	-1.378587e-001	-1.485720e+002	-3.294295e+001	1.349866e+002
307437500	-3.239137e+001	1.164899e+002	-1.353622e-001	-1.490759e+002	-1.383485e-001	-1.490851e+002	-3.289846e+001	1.344249e+002
308500000	-3.234318e+001	1.157382e+002	-1.359867e-001	-1.495873e+002	-1.390015e-001	-1.495980e+002	-3.284910e+001	1.338185e+002
309562500	-3.229270e+001	1.149815e+002	-1.366449e-001	-1.501005e+002	-1.396546e-001	-1.501107e+002	-3.280393e+001	1.332577e+002
310625000	-3.224939e+001	1.141936e+002	-1.371127e-001	-1.506144e+002	-1.402069e-001	-1.506241e+002	-3.275533e+001	1.327123e+002
311687500	-3.220551e+001	1.133879e+002	-1.376788e-001	-1.511290e+002	-1.407599e-001	-1.511381e+002	-3.271639e+001	1.321685e+002
312750000	-3.216862e+001	1.126061e+002	-1.380395e-001	-1.516423e+002	-1.411556e-001	-1.516527e+002	-3.268193e+001	1.316444e+002
313812500	-3.212585e+001	1.118674e+002	-1.384776e-001	-1.521568e+002	-1.416810e-001	-1.521677e+002	-3.264517e+001	1.311804e+002
314875000	-3.208735e+001	1.110297e+002	-1.387915e-001	-1.526724e+002	-1.420969e-001	-1.526830e+002	-3.261072e+001	1.306364e+002
315937500	-3.206188e+001	1.102023e+002	-1.391951e-001	-1.531880e+002	-1.424492e-001	-1.531981e+002	-3.258326e+001	1.301539e+002
317000000	-3.202840e+001	1.093802e+002	-1.396132e-001	-1.537035e+002	-1.428242e-001	-1.537129e+002	-3.255585e+001	1.296816e+002
318062500	-3.199920e+001	1.085419e+002	-1.399399e-001	-1.542170e+002	-1.431647e-001	-1.542281e+002	-3.253296e+001	1.292358e+002
319125000	-3.197873e+001	1.076979e+002	-1.403693e-001	-1.547314e+002	-1.436083e-001	-1.547429e+002	-3.251751e+001	1.287424e+002
320187500	-3.196219e+001	1.068591e+002	-1.406007e-001	-1.552464e+002	-1.438991e-001	-1.552580e+002	-3.250030e+001	1.283426e+002
321250000	-3.193932e+001	1.060355e+002	-1.408315e-001	-1.557609e+002	-1.440809e-001	-1.557723e+002	-3.249382e+001	1.279375e+002
322312500	-3.192584e+001	1.051057e+002	-1.411373e-001	-1.562761e+002	-1.444129e-001	-1.562880e+002	-3.248881e+001	1.275130e+002
323375000	-3.191910e+001	1.042364e+002	-1.413558e-001	-1.567905e+002	-1.446121e-001	-1.568031e+002	-3.248265e+001	1.271635e+002
324437500	-3.191740e+001	1.033162e+002	-1.415008e-001	-1.573061e+002	-1.449120e-001	-1.573187e+002	-3.248106e+001	1.267847e+002
325500000	-3.190695e+001	1.024148e+002	-1.415715e-001	-1.578215e+002	-1.450660e-001	-1.578338e+002	-3.247923e+001	1.264307e+002
326562500	-3.190514e+001	1.015353e+002	-1.417234e-001	-1.583375e+002	-1.451762e-001	-1.583491e+002	-3.248869e+001	1.260985e+002
327625000	-3.190845e+001	1.005936e+002	-1.418677e-001	-1.588518e+002	-1.450743e-001	-1.588637e+002	-3.250583e+001	1.257593e+002
328687500	-3.191503e+001	9.968483e+001	-1.417585e-001	-1.593667e+002	-1.453196e-001	-1.593787e+002	-3.251543e+001	1.254722e+002
329750000	-3.192805e+001	9.870294e+001	-1.418977e-001	-1.598807e+002	-1.453477e-001	-1.598928e+002	-3.253563e+001	1.252009e+002
330812500	-3.193950e+001	9.779120e+001	-1.419307e-001	-1.603952e+002	-1.454423e-001	-1.604071e+002	-3.254935e+001	1.248837e+002
331875000	-3.194981e+001	9.684951e+001	-1.419138e-001	-1.609088e+002	-1.455029e-001	-1.609215e+002	-3.257088e+001	1.246069e+002
332937500	-3.196302e+001	9.586166e+001	-1.418454e-001	-1.614235e+002	-1.456003e-001	-1.614344e+002	-3.259601e+001	1.243654e+002
334000000	-3.198689e+001	9.494163e+001	-1.419556e-001	-1.619377e+002	-1.455246e-001	-1.619492e+002	-3.263223e+001	1.240917e+002
335062500	-3.200490e+001	9.393484e+001	-1.419704e-001	-1.624519e+002	-1.455670e-001	-1.624634e+002	-3.266258e+001	1.238939e+002
336125000	-3.203136e+001	9.291749e+001	-1.419137e-001	-1.629663e+002	-1.455656e-001	-1.629782e+002	-3.270227e+001	1.236761e+002
337187500	-3.204934e+001	9.197948e+001	-1.418541e-001	-1.634798e+002	-1.455568e-001	-1.634914e+002	-3.273625e+001	1.234885e+002
338250000	-3.208219e+001	9.094206e+001	-1.418353e-001	-1.639936e+002	-1.455297e-001	-1.640056e+002	-3.277319e+001	1.233183e+002
339312500	-3.211151e+001	8.992320e+001	-1.417832e-001	-1.645063e+002	-1.455898e-001	-1.645179e+002	-3.281561e+001	1.231337e+002
340375000	-3.214266e+001	8.897780e+001	-1.418213e-001	-1.650177e+002	-1.455254e-001	-1.650304e+002	-3.285636e+001	1.229600e+002
341437500	-3.217794e+001	8.797507e+001	-1.417978e-001	-1.655291e+002	-1.454007e-001	-1.655422e+002	-3.289702e+001	1.228289e+002
342500000	-3.220769e+001	8.695360e+001	-1.417697e-001	-1.660415e+002	-1.454261e-001	-1.660539e+002	-3.294101e+001	1.226566e+002
343562500	-3.224295e+001	8.599082e+001	-1.417769e-001	-1.665533e+002	-1.454018e-001	-1.665659e+002	-3.298394e+001	1.225278e+002
344625000	-3.227239e+001	8.495024e+001	-1.417711e-001	-1.670652e+002	-1.453467e-001	-1.670779e+002	-3.303253e+001	1.223871e+002
345687500	-3.231772e+001	8.387090e+001	-1.417184e-001	-1.675776e+002	-1.454016e-001	-1.675899e+002	-3.307504e+001	1.222535e+002
346750000	-3.235351e+001	8.281768e+001	-1.417059e-001	-1.680888e+002	-1.454131e-001	-1.681019e+002	-3.312757e+001	1.221849e+002
347812500	-3.238422e+001	8.184096e+001	-1.417366e-001	-1.685986e+002	-1.453711e-001	-1.686123e+002	-3.317068e+001	1.220664e+002
348875000	-3.241546e+001	8.079732e+001	-1.418546e-001	-1.691088e+002	-1.453692e-001	-1.691212e+002	-3.321983e+001	1.218702e+002
349937500	-3.245662e+001	7.976855e+001	-1.419288e-001	-1.696180e+002	-1.454563e-001	-1.696304e+002	-3.325941e+001	1.217824e+002
351000000	-3.248250e+001	7.877312e+001	-1.419943e-001	-1.701280e+002	-1.455430e-001	-1.701401e+002	-3.329203e+001	1.217228e+002
352062500	-3.251757e+001	7.769359e+001	-1.420794e-001	-1.706379e+002	-1.456557e-001	-1.706505e+002	-3.335606e+001	1.215772e+002
353125000	-3.255157e+001	7.664529e+001	-1.422609e-001	-1.711486e+002	-1.458753e-001	-1.711615e+002	-3.338979e+001	1.214630e+002
354187500	-3.258308e+001	7.559756e+001	-1.424680e-001	-1.716605e+002	-1.459915e-001	-1.716731e+002	-3.343498e+001	1.212770e+002
355250000	-3.261345e+001	7.456918e+001	-1.426545e-001	-1.721727e+002	-1.461503e-001	-1.721849e+002	-3.348033e+001	1.212250e+002
356312500	-3.264219e+001	7.354297e+001	-1.428224e-001	-1.726855e+002	-1.463621e-001	-1.726970e+002	-3.351668e+001	1.210392e+002
357375000	-3.267149e+001	7.253139e+001	-1.430540e-001	-1.731990e+002	-1.464606e-001	-1.732097e+002	-3.355702e+001	1.208972e+002
358437500	-3.269378e+001	7.150274e+001	-1.433243e-001	-1.737104e+002	-1.466402e-001	-1.737224e+002	-3.358812e+001	1.207327e+002
359500000	-3.271648e+001	7.046994e+001	-1.435634e-001	-1.742230e+002	-1.469577e-001	-1.742351e+002	-3.362984e+001	1.205738e+002
360562500	-3.274385e+001	6.944128e+001	-1.438169e-001	-1.747367e+002	-1.471460e-001	-1.747482e+002	-3.366964e+001	1.204050e+002
361625000	-3.276435e+001	6.845886e+001	-1.440976e-001	-1.752502e+002	-1.474754e-001	-1.752616e+002	-3.370293e+001	1.202084e+002
362687500	-3.277925e+001	6.741346e+001	-1.443830e-001	-1.757644e+002	-1.476101e-001	-1.757750e+002	-3.373224e+001	1.200309e+002
363750000	-3.279659e+001	6.639931e+001	-1.446610e-001	-1.762783e+002	-1.477640e-001	-1.762894e+002	-3.375458e+001	1.198077e+002
364812500	-3.280400e+001	6.541933e+001	-1.448241e-001	-1.767940e+002	-1.481107e-001	-1.768040e+002	-3.378493e+001	1.195718e+002
365875000	-3.281737e+001	6.445784e+001	-1.450077e-001	-1.773100e+002	-1.483688e-001	-1.773190e+002	-3.380787e+001	1.193815e+002
366937500	-3.282693e+001	6.344029e+001	-1.452602e-001	-1.778250e+002	-1.486479e-001	-1.778340e+002	-3.382907e+001	1.190506e+002
368000000	-3.282134e+001	6.249902e+001	-1.454471e-001	-1.783397e+002	-1.488140e-001	-1.783490e+002	-3.384433e+001	1.188419e+002
369062500	-3.281590e+001	6.155084e+001	-1.457780e-001	-1.788539e+002	-1.490121e-001	-1.788641e+002	-3.385960e+001	1.184956e+002
370125000	-3.282201e+001	6.059108e+001	-1.460193e-001	-1.793695e+002	-1.493069e-001	-1.793788e+002	-3.387416e+001	1.182193e+002
371187500	-3.281842e+001	5.968333e+001	-1.462431e-001	-1.798861e+002	-1.494859e-001	-1.798939e+002	-3.388848e+001	1.178712e+002
372250000	-3.281234e+001	5.873565e+001	-1.465435e-001	1.795971e+002	-1.498429e-001	1.795899e+002	-3.389099e+001	1.175303e+002
373312500	-3.279946e+001	5.777378e+001	-1.467379e-001	1.790809e+002	-1.499838e-001	1.790738e+002	-3.390066e+001	1.172037e+002
374375000	-3.278710e+001	5.692625e+001	-1.470775e-001	1.785647e+002	-1.503096e-001	1.785574e+002	-3.389682e+001	1.167966e+002
375437500	-3.276908e+001	5.599350e+001	-1.473471e-001	1.780499e+002	-1.505011e-001	1.780422e+002	-3.389837e+001	1.164254e+002
376500000	-3.275992e+001	5.511084e+001	-1.476704e-001	1.775341e+002	-1.507618e-001	1.775267e+002	-3.391009e+001	1.160448e+002
377562500	-3.274146e+001	5.423632e+001	-1.478761e-001	1.770179e+002	-1.510205e-001	1.770113e+002	-3.389730e+001	1.156273e+002
378625000	-3.271099e+001	5.336044e+001	-1.481552e-001	1.765017e+002	-1.512077e-001	1.764956e+002	-3.389006e+001	1.151410e+002
379687500	-3.269703e+001	5.247869e+001	-1.484961e-001	1.759863e+002	-1.515518e-001	1.759804e+002	-3.389012e+001	1.147636e+002
380750000	-3.266776e+001	5.165250e+001	-1.486674e-001	1.754702e+002	-1.517529e-001	1.754653e+002	-3.387836e+001	1.143284e+002
381812500	-3.264380e+001	5.081039e+001	-1.490339e-001	1.749542e+002	-1.518820e-001	1.749498e+002	-3.386004e+001	1.139064e+002
382875000	-3.261942e+001	4.999942e+001	-1.492065e-001	1.744385e+002	-1.522295e-001	1.744338e+002	-3.385593e+001	1.134842e+002
383937500	-3.258785e+001	4.911882e+001	-1.495138e-001	1.739232e+002	-1.524295e-001	1.739190e+002	-3.383284e+001	1.130133e+002
385000000	-3.255462e+001	4.834977e+001	-1.497549e-001	1.734081e+002	-1.526246e-001	1.734038e+002	-3.382789e+001	1.125465e+002
386062500	-3.252986e+001	4.756777e+001	-1.499592e-001	1.728937e+002	-1.528402e-001	1.728889e+002	-3.380779e+001	1.121230e+002
387125000	-3.250203e+001	4.671479e+001	-1.502413e-001	1.723794e+002	-1.530347e-001	1.723755e+002	-3.379266e+001	1.116205e+002
388187500	-3.246677e+001	4.591182e+001	-1.504063e-001	1.718640e+002	-1.532342e-001	1.718604e+002	-3.376105e+001	1.112296e+002
389250000	-3.243457e+001	4.511293e+001	-1.506816e-001	1.713501e+002	-1.534273e-001	1.713469e+002	-3.375173e+001	1.108064e+002
390312500	-3.240058e+001	4.432099e+001	-1.509762e-001	1.708365e+002	-1.537311e-001	1.708331e+002	-3.373032e+001	1.103027e+002
391375000	-3.237432e+001	4.349989e+001	-1.512169e-001	1.703232e+002	-1.538758e-001	1.703200e+002	-3.370752e+001	1.099096e+002
392437500	-3.234240e+001	4.270162e+001	-1.514241e-001	1.698097e+002	-1.540431e-001	1.698072e+002	-3.369308e+001	1.094555e+002
393500000	-3.230927e+001	4.193468e+001	-1.516354e-001	1.692968e+002	-1.543603e-001	1.692949e+002	-3.367005e+001	1.090242e+002
394562500	-3.228255e+001	4.112202e+001	-1.519705e-001	1.687843e+002	-1.545066e-001	1.687826e+002	-3.365728e+001	1.086246e+002
395625000	-3.225182e+001	4.028715e+001	-1.521375e-001	1.682714e+002	-1.547739e-001	1.682703e+002	-3.363375e+001	1.082533e+002
396687500	-3.222075e+001	3.951699e+001	-1.522965e-001	1.677598e+002	-1.550298e-001	1.677589e+002	-3.360626e+001	1.078948e+002
397750000	-3.219333e+001	3.869083e+001	-1.524718e-001	1.672480e+002	-1.552160e-001	1.672482e+002	-3.359872e+001	1.075663e+002
398812500	-3.217069e+001	3.783874e+001	-1.527907e-001	1.667365e+002	-1.554935e-001	1.667377e+002	-3.357877e+001	1.071847e+002
399875000	-3.213824e+001	3.707064e+001	-1.530855e-001	1.662263e+002	-1.556076e-001	1.662280e+002	-3.355742e+001	1.068256e+002
400937500	-3.211942e+001	3.626235e+001	-1.534181e-001	1.657171e+002	-1.557046e-001	1.657190e+002	-3.354370e+001	1.065449e+002
402000000	-3.209759e+001	3.540739e+001	-1.537363e-001	1.652074e+002	-1.561018e-001	1.652089e+002	-3.352952e+001	1.062304e+002
403062500	-3.207721e+001	3.457994e+001	-1.539374e-001	1.646967e+002	-1.562638e-001	1.646988e+002	-3.351791e+001	1.059495e+002
404125000	-3.205867e+001	3.371892e+001	-1.542065e-001	1.641848e+002	-1.565783e-001	1.641885e+002	-3.351059e+001	1.056968e+002
405187500	-3.204592e+001	3.283696e+001	-1.544459e-001	1.636731e+002	-1.568436e-001	1.636777e+002	-3.350267e+001	1.054160e+002
406250000	-3.202782e+001	3.197941e+001	-1.546768e-001	1.631602e+002	-1.570642e-001	1.631658e+002	-3.350713e+001	1.052515e+002
407312500	-3.201484e+001	3.104523e+001	-1.549480e-001	1.626477e+002	-1.571896e-001	1.626537e+002	-3.350243e+001	1.049913e+002
408375000	-3.200143e+001	3.012260e+001	-1.552501e-001	1.621353e+002	-1.575987e-001	1.621409e+002	-3.349994e+001	1.048103e+002
409437500	-3.199338e+001	2.915806e+001	-1.556306e-001	1.616226e+002	-1.577619e-001	1.616281e+002	-3.351233e+001	1.046465e+002
410500000	-3.198805e+001	2.817552e+001	-1.559060e-001	1.611102e+002	-1.580036e-001	1.611159e+002	-3.352279e+001	1.044983e+002
411562500	-3.198199e+001	2.721081e+001	-1.561432e-001	1.605967e+002	-1.582967e-001	1.606029e+002	-3.353023e+001	1.044062e+002
412625000	-3.198398e+001	2.619365e+001	-1.564291e-001	1.600830e+002	-1.585499e-001	1.600898e+002	-3.354482e+001	1.043121e+002
413687500	-3.198335e+001	2.514692e+001	-1.567048e-001	1.595682e+002	-1.589086e-001	1.595764e+002	-3.355971e+001	1.042508e+002
414750000	-3.198614e+001	2.413562e+001	-1.570417e-001	1.590541e+002	-1.590378e-001	1.590628e+002	-3.358136e+001	1.042339e+002
415812500	-3.198519e+001	2.306218e+001	-1.571842e-001	1.585405e+002	-1.591800e-001	1.585489e+002	-3.360803e+001	1.041358e+002
416875000	-3.199396e+001	2.197240e+001	-1.575384e-001	1.580263e+002	-1.594173e-001	1.580341e+002	-3.362439e+001	1.041594e+002
417937500	-3.199858e+001	2.091042e+001	-1.578640e-001	1.575112e+002	-1.596778e-001	1.575196e+002	-3.365072e+001	1.041708e+002
419000000	-3.200451e+001	1.979357e+001	-1.579847e-001	1.569962e+002	-1.598818e-001	1.570058e+002	-3.367674e+001	1.041765e+002
420062500	-3.200409e+001	1.865795e+001	-1.582436e-001	1.564808e+002	-1.600725e-001	1.564909e+002	-3.369985e+001	1.042840e+002
421125000	-3.200960e+001	1.750316e+001	-1.584171e-001	1.559658e+002	-1.602851e-001	1.559752e+002	-3.373087e+001	1.042683e+002
422187500	-3.201851e+001	1.634983e+001	-1.586562e-001	1.554514e+002	-1.605406e-001	1.554605e+002	-3.376533e+001	1.044539e+002
423250000	-3.202515e+001	1.516506e+001	-1.587383e-001	1.549370e+002	-1.606958e-001	1.549464e+002	-3.379355e+001	1.045069e+002
424312500	-3.202820e+001	1.397071e+001	-1.589440e-001	1.544233e+002	-1.608466e-001	1.544313e+002	-3.383432e+001	1.046484e+002
425375000	-3.203419e+001	1.275837e+001	-1.590325e-001	1.539082e+002	-1.608469e-001	1.539172e+002	-3.386849e+001	1.047765e+002
426437500	-3.204267e+001	1.155729e+001	-1.592166e-001	1.533929e+002	-1.610824e-001	1.534028e+002	-3.390359e+001	1.049194e+002
427500000	-3.204811e+001	1.028166e+001	-1.594206e-001	1.528774e+002	-1.612637e-001	1.528879e+002	-3.395139e+001	1.051364e+002
428562500	-3.205434e+001	9.027801e+000	-1.594481e-001	1.523620e+002	-1.614720e-001	1.523734e+002	-3.397682e+001	1.052851e+002
429625000	-3.205655e+001	7.771653e+000	-1.595856e-001	1.518467e+002	-1.614325e-001	1.518584e+002	-3.401658e+001	1.054855e+002
430687500	-3.205917e+001	6.529817e+000	-1.596922e-001	1.513308e+002	-1.614387e-001	1.513434e+002	-3.404672e+001	1.056655e+002
431750000	-3.206397e+001	5.244682e+000	-1.598182e-001	1.508151e+002	-1.615276e-001	1.508274e+002	-3.409920e+001	1.059411e+002
432812500	-3.206003e+001	3.994724e+000	-1.599031e-001	1.503008e+002	-1.615444e-001	1.503129e+002	-3.412539e+001	1.061639e+002
433875000	-3.206724e+001	2.681027e+000	-1.599539e-001	1.497865e+002	-1.616771e-001	1.497979e+002	-3.416311e+001	1.063476e+002
434937500	-3.206522e+001	1.450539e+000	-1.601212e-001	1.492728e+002	-1.617342e-001	1.492839e+002	-3.420035e+001	1.065963e+002
436000000	-3.206047e+001	1.875040e-001	-1.600794e-001	1.487592e+002	-1.617763e-001	1.487697e+002	-3.423333e+001	1.068488e+002
437062500	-3.205818e+001	-1.073663e+000	-1.601230e-001	1.482464e+002	-1.618219e-001	1.482562e+002	-3.426553e+001	1.071202e+002
438125000	-3.204871e+001	-2.341338e+000	-1.601890e-001	1.477329e+002	-1.618099e-001	1.477429e+002	-3.429209e+001	1.073114e+002
439187500	-3.204759e+001	-3.625761e+000	-1.601431e-001	1.472191e+002	-1.618441e-001	1.472293e+002	-3.432213e+001	1.075361e+002
440250000	-3.203546e+001	-4.816727e+000	-1.601499e-001	1.467055e+002	-1.617191e-001	1.467169e+002	-3.435738e+001	1.077635e+002
441312500	-3.201834e+001	-6.035667e+000	-1.602675e-001	1.461918e+002	-1.618230e-001	1.462042e+002	-3.437920e+001	1.079129e+002
442375000	-3.200001e+001	-7.275440e+000	-1.602727e-001	1.456782e+002	-1.617071e-001	1.456908e+002	-3.439847e+001	1.081881e+002
443437500	-3.198362e+001	-8.507172e+000	-1.602183e-001	1.451651e+002	-1.617822e-001	1.451779e+002	-3.442291e+001	1.083831e+002
444500000	-3.196570e+001	-9.684757e+000	-1.601783e-001	1.446511e+002	-1.618118e-001	1.446647e+002	-3.443949e+001	1.085235e+002
445562500	-3.194795e+001	-1.087756e+001	-1.601859e-001	1.441386e+002	-1.617934e-001	1.441524e+002	-3.446004e+001	1.087207e+002
446625000	-3.192281e+001	-1.199802e+001	-1.602478e-001	1.436274e+002	-1.616970e-001	1.436407e+002	-3.447107e+001	1.088650e+002
447687500	-3.190106e+001	-1.313257e+001	-1.603129e-001	1.431164e+002	-1.617546e-001	1.431291e+002	-3.448841e+001	1.089812e+002
448750000	-3.187815e+001	-1.425564e+001	-1.603578e-001	1.426067e+002	-1.618076e-001	1.426185e+002	-3.448932e+001	1.090686e+002
449812500	-3.185051e+001	-1.536641e+001	-1.605078e-001	1.420969e+002	-1.618322e-001	1.421085e+002	-3.449144e+001	1.091076e+002
450875000	-3.182800e+001	-1.638925e+001	-1.605588e-001	1.415867e+002	-1.618993e-001	1.415988e+002	-3.450130e+001	1.092161e+002
451937500	-3.179919e+001	-1.743456e+001	-1.606799e-001	1.410755e+002	-1.620738e-001	1.410881e+002	-3.449547e+001	1.092882e+002
453000000	-3.177403e+001	-1.846987e+001	-1.608810e-001	1.405637e+002	-1.621017e-001	1.405768e+002	-3.449811e+001	1.092988e+002
454062500	-3.174365e+001	-1.946504e+001	-1.609789e-001	1.400515e+002	-1.623297e-001	1.400648e+002	-3.449205e+001	1.092957e+002
455125000	-3.171390e+001	-2.037945e+001	-1.611622e-001	1.395388e+002	-1.624588e-001	1.395526e+002	-3.448537e+001	1.092487e+002
456187500	-3.168641e+001	-2.141911e+001	-1.613171e-001	1.390254e+002	-1.627471e-001	1.390396e+002	-3.447173e+001	1.092585e+002
457250000	-3.165643e+001	-2.237732e+001	-1.615986e-001	1.385124e+002	-1.629066e-001	1.385261e+002	-3.446596e+001	1.091906e+002
458312500	-3.162149e+001	-2.330444e+001	-1.618016e-001	1.379986e+002	-1.630709e-001	1.380121e+002	-3.445662e+001	1.091177e+002
459375000	-3.159123e+001	-2.420528e+001	-1.620551e-001	1.374857e+002	-1.632396e-001	1.374981e+002	-3.443580e+001	1.090815e+002
460437500	-3.157153e+001	-2.514673e+001	-1.624378e-001	1.369716e+002	-1.634929e-001	1.369844e+002	-3.442373e+001	1.089376e+002
461500000	-3.153432e+001	-2.603910e+001	-1.626618e-001	1.364587e+002	-1.637104e-001	1.364706e+002	-3.440729e+001	1.088472e+002
462562500	-3.150389e+001	-2.689178e+001	-1.628731e-001	1.359442e+002	-1.640647e-001	1.359551e+002	-3.439218e+001	1.086973e+002
