! MARKI MICROWAVE INC.
! Email:             	support@markimicrowave.com   				Phone:   408-778-4200
! Model Number:      	EVAL-ADM-5929SM			Date:    10/17
! Filename:	 EVAL-ADM-5929SM Vd=5V Vg=-0.25V.S2P   	Version: 1.0
! Description:       	2-port S-parameter data for amplifier EVAL-ADM-5929SM + BTN1-0050 measured at Pin = -20 dBm input power
! Frequency Measured: 	10 MHz to 26.5 GHz  
! Measurements:		S11, S21, S12, S22

# Hz S dB R 50
10000000 -20.086605 139.08188 17.026199 173.9942 -32.104572 -148.67169 -14.79178 -103.39082
43112500 -20.37632 152.82913 16.959324 171.17265 -34.455738 -120.23109 -16.483076 -126.68802
76225000 -20.508909 166.97621 16.892641 167.68573 -36.603085 -95.743362 -18.821087 -151.36761
109337500 -20.649408 -179.82735 16.82432 163.69554 -38.264862 -68.287422 -21.028711 -174.24823
142450000 -20.692184 -166.56827 16.738094 159.40565 -40.187729 -44.364094 -22.986986 165.29054
175562500 -20.718027 -153.01506 16.6301 154.41539 -41.866001 -4.853364 -25.824759 145.53395
208675000 -19.964499 -149.42838 16.568504 149.80986 -42.001087 26.907774 -27.13228 144.33075
241787500 -19.150373 -155.69733 16.486588 145.37164 -43.016228 46.79636 -26.757235 142.22168
274900000 -19.022299 -157.55606 16.480862 141.03221 -41.609909 83.334923 -26.633503 142.76683
308012500 -18.325325 -162.75768 16.413683 136.39154 -41.726688 90.926949 -26.940802 141.19185
341125000 -17.914013 -165.07762 16.347744 131.908 -42.037586 98.639252 -27.439262 137.65129
374237500 -17.58053 -168.93639 16.262535 127.58192 -41.545296 121.68562 -26.940769 140.10596
407350000 -17.268223 -171.37781 16.201221 123.27699 -42.451019 156.0892 -26.828453 145.36398
440462500 -17.010509 -173.5648 16.133148 118.82163 -42.415527 -152.87859 -27.237381 145.42331
473575000 -16.709002 -176.6333 16.077606 114.51771 -42.933975 -117.72488 -26.585369 141.65012
506687500 -16.492352 178.22818 16.001743 109.97807 -43.693542 -104.87384 -25.18581 139.20717
539800000 -16.230667 175.61395 15.950274 105.59283 -42.304684 -80.841843 -25.211462 139.82314
572912500 -16.181673 174.36455 15.912493 101.28732 -42.763412 -60.637402 -25.342245 136.45448
606025000 -16.310085 173.39742 15.846736 97.133888 -43.167141 -34.390602 -25.685406 131.57603
639137500 -16.09745 170.92122 15.782485 92.907822 -41.509598 -18.835251 -25.545786 132.26534
672250000 -15.896833 169.11111 15.747736 88.600014 -40.881981 -11.212496 -25.75482 127.36564
705362500 -15.940705 166.48959 15.677293 84.382957 -39.299664 -19.935127 -26.007208 118.06153
738475000 -15.865784 163.35777 15.63228 80.281944 -38.801193 -46.784039 -25.806515 108.80804
771587500 -15.775693 160.99724 15.560917 76.290512 -37.607563 -55.343678 -26.262829 104.5296
804700000 -15.71464 160.1974 15.527306 72.241852 -37.55883 -54.883789 -26.907154 99.879189
837812500 -15.690917 158.08711 15.47976 68.085548 -38.307701 -92.353813 -27.520893 93.644768
870925000 -15.495816 155.87845 15.422237 63.949566 -38.715816 -107.53923 -28.157007 90.874947
904037500 -15.274303 153.93803 15.380829 59.895794 -37.733009 -127.34615 -28.373875 84.388779
937150000 -15.295268 152.99321 15.338353 55.912071 -38.043282 -119.67273 -29.707718 74.767342
970262500 -15.359653 151.12279 15.284575 51.941555 -38.499355 -97.411911 -30.953203 67.711624
1003375000 -15.169865 149.18893 15.255115 47.887093 -39.898026 -85.213875 -32.43161 54.084023
1036487500 -15.035747 147.46716 15.215619 43.708221 -39.829182 -73.459396 -32.784008 47.867439
1069600000 -14.932343 145.89287 15.200479 39.508804 -39.533695 -80.380486 -32.657059 37.00956
1102712500 -14.970139 143.70226 15.184274 35.53167 -39.838768 -65.845581 -32.507286 24.367579
1135825000 -14.859677 142.09978 15.164497 31.390642 -39.699448 -34.152527 -32.142254 14.320049
1168937500 -14.800974 140.07964 15.126261 27.324772 -40.268204 -22.194937 -32.194843 6.0611486
1202050000 -14.693779 137.43298 15.105505 23.166006 -41.336376 4.5740438 -31.712465 -3.169816
1235162500 -14.72247 134.65523 15.072834 18.963665 -41.891861 -0.79714799 -30.481533 -7.867291
1268275000 -14.555634 132.08951 15.056033 14.822419 -41.305817 -35.095211 -29.339443 -15.397862
1301387500 -14.453886 130.90916 15.033784 10.609101 -40.590466 -65.348282 -28.31497 -18.96105
1334500000 -14.447555 128.95105 15.01252 6.4191351 -39.829338 -71.46537 -27.979149 -30.542694
1367612500 -14.487668 126.23072 14.988242 2.2510335 -39.877064 -77.442673 -27.780014 -40.288219
1400725000 -14.386423 124.19298 14.926851 -2.0408545 -39.750832 -94.711357 -27.947861 -43.157852
1433837500 -14.325899 122.21085 14.873301 -5.9981475 -39.312851 -126.84161 -27.608925 -53.660122
1466950000 -14.344159 120.19656 14.828437 -10.13536 -38.632771 -146.26033 -26.66465 -66.364426
1500062500 -14.39604 118.18452 14.765471 -14.194478 -37.784649 -158.52737 -26.194918 -71.366676
1533175000 -14.30284 115.85236 14.738563 -18.339762 -36.492825 -163.07248 -26.114401 -81.169624
1566287500 -14.39495 115.77384 14.678207 -22.465572 -37.998035 -151.11267 -25.984293 -94.723083
1599400000 -14.520166 113.9262 14.595975 -26.458593 -37.264111 -114.10831 -25.079086 -104.0488
1632512500 -14.577441 112.39299 14.547352 -30.333385 -37.738388 -81.038666 -24.882502 -110.8466
1665625000 -14.528766 110.5612 14.458675 -34.393215 -38.408569 -49.545696 -24.540972 -117.65903
1698737500 -14.375669 109.20596 14.407923 -38.381714 -37.524868 -1.2116454 -24.372202 -128.62065
1731850000 -14.375434 106.30846 14.367672 -42.573837 -37.451199 46.867214 -24.524294 -131.80402
1764962500 -14.443329 104.67072 14.309665 -46.569164 -37.35384 98.352791 -25.039841 -131.30319
1798075000 -14.378708 103.78699 14.285841 -50.466286 -37.310604 121.59061 -25.256176 -137.91425
1831187500 -14.235474 102.78768 14.238588 -54.355152 -37.9576 166.9796 -25.5819 -138.65646
1864300000 -14.23942 99.627647 14.19587 -58.155857 -36.292625 -146.1084 -25.266037 -134.87611
1897412500 -14.151499 97.352402 14.19899 -62.003651 -36.085274 -131.32399 -25.096548 -137.88899
1930525000 -14.005439 95.267326 14.187846 -66.058075 -35.891068 -137.72003 -24.820419 -139.50972
1963637500 -14.114616 93.897804 14.191807 -69.889023 -35.184673 -137.8929 -24.494589 -138.51598
1996750000 -14.174455 92.227798 14.210095 -73.683502 -34.717175 -159.0024 -23.882244 -140.108
2029862500 -14.181552 91.230896 14.187434 -77.401436 -34.918221 -162.55493 -23.365843 -140.87451
2062975000 -14.013143 88.516045 14.20587 -81.172272 -35.473206 -176.44072 -22.661354 -147.81592
2096087500 -14.039609 85.900803 14.210415 -85.171577 -35.16153 -154.45822 -22.003517 -151.51929
2129200000 -14.121976 83.510132 14.220364 -89.347717 -34.237385 -157.82683 -20.908531 -158.43617
2162312500 -13.935065 81.844002 14.214803 -93.509399 -35.583179 179.83748 -20.606974 -163.54346
2195425000 -13.781933 80.239868 14.223144 -97.620178 -36.718433 177.90916 -20.271652 -165.62271
2228537500 -13.748617 78.464622 14.195363 -101.48911 -36.449036 -159.75111 -19.94006 -168.28792
2261650000 -13.541767 76.643822 14.184563 -105.50789 -36.662727 -149.10085 -19.491201 -172.64063
2294762500 -13.488464 74.328651 14.133287 -109.6785 -37.737179 -117.31276 -19.220564 -175.54347
2327875000 -13.541114 72.882866 14.136454 -113.78878 -37.612755 -93.498245 -18.965439 177.98245
2360987500 -13.489343 71.726303 14.138027 -118.03422 -36.789761 -72.796135 -18.544531 175.84329
2394100000 -13.508106 70.520027 14.099032 -122.05322 -37.300346 -82.451332 -18.484404 172.07204
2427212500 -13.477852 68.996948 14.057047 -125.96999 -38.296429 -76.315247 -18.466093 168.32251
2460325000 -13.573689 66.944016 14.045236 -130.03964 -37.405746 -47.154518 -18.405466 162.85239
2493437500 -13.606282 64.171356 13.994534 -134.20206 -38.147228 -23.345928 -18.220842 159.05196
2526550000 -13.63182 62.720802 13.975365 -138.4859 -38.430531 -4.6832275 -18.198519 155.19435
2559662500 -13.851437 61.226624 13.942635 -142.54918 -38.896408 35.695477 -18.313545 151.65436
2592775000 -13.976762 58.693054 13.934327 -146.5381 -38.655323 42.373932 -18.289114 147.7079
2625887500 -13.898107 56.919098 13.892406 -150.67326 -38.936253 48.186714 -18.165865 144.11729
2659000000 -13.878239 54.613922 13.859767 -154.65903 -39.319237 51.049721 -18.250868 139.5692
2692112500 -13.731439 51.785908 13.818035 -158.6635 -39.505936 50.484669 -18.235949 136.66365
2725225000 -13.660434 49.659649 13.824463 -162.74715 -40.660038 40.379555 -18.358759 132.35471
2758337500 -13.559916 47.996609 13.805399 -166.52785 -39.991673 -0.49456668 -18.34094 129.88033
2791450000 -13.500377 46.66938 13.765342 -170.35347 -40.000576 -29.897583 -18.431345 127.14213
2824562500 -13.439469 44.986813 13.726997 -174.20424 -39.46558 -60.436649 -18.478434 122.87202
2857675000 -13.241538 42.312771 13.723102 -178.14653 -40.874226 -111.31355 -18.747091 120.2779
2890787500 -13.098998 41.285088 13.706312 177.97278 -41.610626 -135.69083 -18.949812 116.20314
2923900000 -13.117282 38.378521 13.681188 173.94519 -42.272343 -161.51318 -18.983416 111.22663
2957012500 -13.081771 36.396755 13.655233 169.91322 -42.448826 168.09708 -19.294132 107.42502
2990125000 -13.027891 35.154816 13.670978 165.71919 -41.923492 163.6498 -19.482742 104.08263
3023237500 -13.023618 33.949738 13.620925 161.83528 -41.209633 171.23338 -19.688522 101.86829
3056350000 -13.033017 32.339531 13.618119 157.88353 -41.511883 179.17427 -20.093313 98.378235
3089462500 -13.007923 30.635662 13.6423 153.85881 -39.828194 169.23024 -20.458467 95.144501
3122575000 -13.061789 28.130304 13.637679 149.72568 -42.080116 153.0775 -21.097273 90.728592
3155687500 -12.973187 26.306149 13.632775 145.6219 -40.11005 149.83556 -21.506927 86.105843
3188800000 -12.983496 23.517584 13.620847 141.52151 -39.935993 138.2962 -21.75552 81.485832
3221912500 -12.771023 22.298235 13.645639 137.74794 -39.527882 147.77766 -22.156908 80.535088
3255025000 -12.750689 20.766283 13.625273 133.95323 -40.179794 157.70818 -22.210217 78.656425
3288137500 -12.784407 19.392366 13.594961 130.09669 -40.177002 149.55608 -23.266409 76.170692
3321250000 -12.668527 16.380514 13.596163 125.962 -39.552235 147.29306 -23.584095 73.549454
3354362500 -12.589603 14.469683 13.590977 121.7207 -39.453114 151.29483 -24.41641 70.696289
3387475000 -12.528327 12.792492 13.577532 117.71661 -40.005314 156.9942 -25.121443 69.952599
3420587500 -12.4369 10.754492 13.584803 113.67535 -38.452225 163.6113 -25.92474 67.111992
3453700000 -12.484934 8.8434172 13.576149 109.61697 -39.081905 175.65094 -26.048708 63.344173
3486812500 -12.460903 7.2653885 13.555855 105.41534 -38.356926 -157.16826 -26.399267 64.108055
3519925000 -12.522786 5.1994634 13.533614 101.15781 -38.074635 -136.10188 -26.760687 59.183971
3553037500 -12.474681 4.0913801 13.535868 97.019447 -36.764812 -92.298241 -27.30575 59.052021
3586150000 -12.361081 1.608801 13.52958 92.847961 -36.705822 -57.086056 -27.218233 59.261631
3619262500 -12.355678 0.099869102 13.508399 88.745125 -35.987137 -34.574116 -27.253269 64.931435
3652375000 -12.359761 -2.4439414 13.479087 84.789146 -37.572845 8.3161077 -27.176283 69.799866
3685487500 -12.376494 -5.3072767 13.435723 80.657928 -36.992905 49.642078 -27.473394 73.33036
3718600000 -12.358315 -7.7441959 13.377848 76.654045 -36.866638 94.765587 -27.126394 81.747009
3751712500 -12.268818 -10.096427 13.34862 72.579254 -36.427284 133.31319 -27.077524 89.506615
3784825000 -12.110792 -11.924736 13.358149 68.549683 -36.877483 156.6143 -26.94022 93.91938
3817937500 -12.152492 -14.05267 13.292189 64.357391 -37.042248 -177.85051 -26.575129 103.59164
3851050000 -12.233283 -16.890818 13.255714 60.054501 -37.648914 -158.30643 -26.360344 108.41524
3884162500 -12.341227 -19.380907 13.234805 55.960171 -37.462128 -131.41617 -25.985727 113.66733
3917275000 -12.372796 -21.947502 13.196437 52.061024 -38.171524 -112.74558 -25.697491 114.30444
3950387500 -12.267368 -23.783468 13.142456 47.775093 -37.401623 -84.569977 -24.765493 114.25641
3983500000 -12.217128 -25.438059 13.115439 43.739361 -37.271061 -52.599865 -24.295113 112.74522
4016612500 -12.166443 -26.777964 13.097652 39.694958 -37.758011 -39.440479 -23.659983 113.59822
4049725000 -12.149737 -28.970661 13.051025 35.913216 -37.800892 -13.184669 -23.102949 113.27988
4082837500 -12.198754 -31.545137 12.969014 32.066589 -37.443771 -2.5432155 -22.919277 113.05438
4115950000 -12.107961 -35.009769 12.992186 28.246515 -37.270706 -18.57618 -22.578753 110.86438
4149062500 -12.030834 -37.351879 12.958974 24.411484 -37.577427 -46.524368 -21.893854 108.80097
4182175000 -11.985111 -38.96629 12.9129 20.62661 -38.065063 -58.669891 -21.331015 105.27529
4215287500 -11.975767 -40.988403 12.890328 16.688105 -38.423023 -43.538391 -20.961971 102.02087
4248400000 -12.123055 -43.086464 12.866509 12.934646 -37.917179 -37.359608 -20.879675 100.5966
4281512500 -12.150723 -45.238136 12.822242 9.0751858 -37.859951 -16.510584 -20.190256 99.828972
4314625000 -12.225236 -47.201027 12.784899 5.0554233 -37.616985 -5.4707165 -19.616013 96.485588
4347737500 -12.308185 -48.618256 12.756327 1.0391393 -39.817875 -18.775064 -19.483078 93.452263
4380850000 -12.30176 -50.387058 12.730622 -2.8505216 -39.810188 -40.545757 -18.926245 90.641075
4413962500 -12.30722 -51.46241 12.691021 -6.7512317 -39.870373 -29.207289 -18.780279 88.690468
4447075000 -12.257652 -53.132599 12.669321 -10.536192 -39.604881 -11.168056 -18.661243 86.858276
4480187500 -12.354487 -55.403519 12.642498 -14.389023 -39.367901 9.7980328 -18.676622 84.451233
4513300000 -12.349911 -57.680218 12.625282 -18.350355 -39.946449 3.8910444 -18.617905 82.479218
4546412500 -12.377481 -60.008827 12.626164 -22.234781 -40.204853 -17.738136 -18.346794 79.951668
4579525000 -12.435807 -62.34523 12.624843 -26.049772 -42.012199 -41.965336 -18.013956 76.511208
4612637500 -12.439927 -65.024818 12.620789 -29.785704 -42.840839 -43.205986 -17.839951 73.460167
4645750000 -12.457247 -67.243935 12.619732 -33.749271 -40.860115 -47.631985 -17.642563 70.081581
4678862500 -12.554301 -69.075417 12.633101 -37.498295 -41.145294 -40.825558 -17.552824 68.331345
4711975000 -12.586647 -70.677719 12.633968 -41.397697 -41.189457 -37.598438 -17.499943 65.910248
4745087500 -12.620948 -73.166771 12.64118 -45.366734 -41.268078 -28.622566 -17.400852 62.859852
4778200000 -12.508507 -75.159576 12.650574 -49.358154 -42.005192 -9.1879673 -16.837729 60.99292
4811312500 -12.544693 -76.572937 12.648197 -53.367546 -40.913311 30.138733 -16.739653 57.468018
4844425000 -12.494604 -78.157639 12.63649 -57.291885 -40.753437 96.873077 -16.565954 53.493023
4877537500 -12.509285 -79.74559 12.634088 -61.385609 -39.92662 144.61404 -16.398556 51.49369
4910650000 -12.556615 -81.178062 12.634832 -65.245674 -39.131466 173.38519 -16.227261 47.671581
4943762500 -12.551988 -82.551842 12.634248 -69.208115 -39.148369 -153.8094 -16.048962 45.692471
4976875000 -12.496378 -84.728981 12.61909 -73.266968 -40.037113 -121.01172 -15.90277 42.165325
5009987500 -12.559346 -87.071831 12.575263 -77.181366 -40.510002 -117.5836 -15.685443 38.042065
5043100000 -12.677303 -88.216873 12.542347 -80.995857 -40.966911 -139.57655 -15.589121 35.202404
5076212500 -12.818722 -90.299278 12.543539 -84.922554 -39.988926 -173.6143 -15.640255 32.058098
5109325000 -12.894147 -92.584564 12.521126 -88.676071 -40.542194 134.76967 -15.616233 29.196968
5142437500 -13.030115 -94.53566 12.501161 -92.4655 -40.936516 77.982368 -15.51974 27.451189
5175550000 -13.107586 -96.362396 12.489177 -96.23819 -41.15189 15.844431 -15.489566 23.885345
5208662500 -13.133015 -98.748932 12.462283 -100.13388 -41.175694 -25.580324 -15.692038 22.325354
5241775000 -13.180734 -101.26326 12.435906 -103.85765 -41.561569 -53.855743 -15.727155 18.48576
5274887500 -13.227012 -103.13308 12.459362 -107.72937 -41.093464 -86.119019 -15.650375 15.478601
5308000000 -13.273967 -105.21915 12.477786 -111.61481 -40.637077 -86.279289 -15.705566 13.91194
5341112500 -13.25189 -107.73107 12.486536 -115.61668 -39.339767 -86.743477 -15.72643 11.127421
5374225000 -13.18581 -109.68404 12.489277 -119.47801 -39.329792 -90.13192 -15.910295 8.9718161
5407337500 -13.182201 -111.20565 12.504641 -123.55845 -38.241188 -84.489052 -15.741385 6.0468359
5440450000 -13.190248 -113.35114 12.517934 -127.65953 -37.4077 -94.487312 -15.847746 2.8160107
5473562500 -13.238454 -114.90228 12.555101 -131.63289 -36.691761 -88.235275 -15.949553 0.90176195
5506675000 -13.258752 -116.95673 12.564432 -135.50661 -36.852745 -102.65021 -15.938549 -1.910283
5539787500 -13.312996 -118.79923 12.593979 -139.50487 -37.151581 -131.1573 -16.095089 -3.4849446
5572900000 -13.380249 -121.09468 12.570088 -143.71025 -36.123344 -139.71953 -16.298592 -6.295372
5606012500 -13.426064 -122.08353 12.553423 -147.59113 -35.297195 -156.14145 -16.450214 -8.8195944
5639125000 -13.557741 -123.18036 12.551757 -151.72397 -36.139156 -174.25792 -16.559353 -11.405169
5672237500 -13.736997 -124.3519 12.531101 -155.53979 -36.241199 169.36061 -16.475569 -13.491673
5705350000 -13.831738 -126.78809 12.555956 -159.46692 -36.400528 152.44824 -16.655916 -14.42256
5738462500 -13.793118 -128.99515 12.571589 -163.39519 -36.617226 127.68236 -17.006508 -16.072765
5771575000 -13.74272 -131.41661 12.530067 -167.33005 -35.830029 120.10415 -17.201284 -18.280876
5804687500 -13.760959 -133.47351 12.543058 -171.4655 -35.168659 117.06805 -17.260494 -20.887207
5837800000 -13.883259 -135.88362 12.542933 -175.39825 -34.625721 111.82298 -17.536835 -22.717493
5870912500 -13.910499 -138.01575 12.556181 -179.45497 -35.360783 102.87699 -17.766464 -25.182667
5904025000 -14.016218 -140.39809 12.578471 176.51602 -35.761955 93.57975 -18.140398 -26.719809
5937137500 -13.966411 -142.34944 12.586947 172.60538 -35.484745 99.261147 -18.399881 -28.69228
5970250000 -13.830659 -143.92577 12.615842 168.47681 -35.185852 105.51469 -18.796139 -30.781996
6003362500 -13.843422 -145.90953 12.581052 164.48151 -36.075134 119.84474 -19.114294 -32.452061
6036475000 -13.925952 -147.29214 12.593588 160.23831 -35.899475 135.21075 -19.263283 -34.902126
6069587500 -13.999789 -148.98282 12.614578 156.14102 -37.349419 135.16255 -19.647913 -36.953789
6102700000 -13.954533 -150.36906 12.642508 152.22824 -38.763313 134.66039 -19.846249 -37.988148
6135812500 -13.903618 -151.28732 12.660943 148.03262 -38.741348 136.61105 -20.059427 -37.780609
6168925000 -13.917722 -152.52042 12.659758 144.1245 -38.802464 136.66824 -20.445824 -38.649368
6202037500 -13.919219 -154.32018 12.667132 140.08012 -38.916939 147.62962 -20.484955 -40.831669
6235150000 -14.002178 -156.33598 12.67695 135.94626 -38.830685 151.83737 -20.741571 -38.278778
6268262500 -14.238542 -158.30688 12.656374 131.81354 -41.774334 155.75104 -20.9874 -39.156193
6301375000 -14.227337 -159.24147 12.682686 127.77087 -41.175476 140.64819 -21.252684 -37.10323
6334487500 -14.340096 -161.2066 12.662227 124.00867 -42.226292 142.43747 -21.629507 -35.041775
6367600000 -14.465922 -163.1613 12.656412 119.89371 -41.727558 130.19551 -21.507212 -32.804127
6400712500 -14.712172 -164.90369 12.62241 115.68286 -40.319752 128.32188 -21.809429 -30.075394
6433825000 -14.794225 -167.83844 12.598288 111.5207 -40.425026 120.5234 -21.831133 -30.508232
6466937500 -14.841628 -169.49214 12.590852 107.39966 -39.814884 95.253647 -21.594793 -27.56797
6500050000 -14.897209 -170.97769 12.554519 103.3279 -39.834637 41.799561 -21.536423 -24.030638
6533162500 -15.030696 -173.16298 12.55315 99.404816 -40.167858 -3.0576015 -21.164034 -24.294992
6566275000 -15.02613 -175.06534 12.535858 95.353027 -38.006367 -58.168568 -20.810934 -21.422623
6599387500 -15.209094 -177.46526 12.50463 91.29084 -38.195953 -96.076004 -20.514551 -21.965839
6632500000 -15.231295 -179.05446 12.495168 87.073647 -38.248283 -143.58107 -20.017874 -20.810589
6665612500 -15.225793 179.64117 12.475367 83.030045 -38.130478 173.5399 -19.822323 -19.8393
6698725000 -15.332651 177.59471 12.469872 79.056702 -40.019955 122.97788 -19.45619 -19.900547
6731837500 -15.514017 176.32841 12.434731 75.205345 -39.042484 95.340591 -19.029161 -20.317657
6764950000 -15.614363 174.27887 12.423476 71.268829 -39.235203 66.451645 -18.676699 -20.340372
